T2BC8 000:003.439   SEGGER J-Link V7.88i Log File
T2BC8 000:003.553   DLL Compiled: Jun 21 2023 11:52:57
T2BC8 000:003.559   Logging started @ 2023-10-03 15:58
T2BC8 000:003.565 - 3.569ms
T2BC8 000:003.575 JLINK_SetWarnOutHandler(...)
T2BC8 000:003.582 - 0.009ms
T2BC8 000:003.589 JLINK_OpenEx(...)
T2BC8 000:005.881   Firmware: J-Link EDU Mini V1 compiled Jun  6 2023 10:50:57
T2BC8 000:006.714   Firmware: J-Link EDU Mini V1 compiled Jun  6 2023 10:50:57
T2BC8 000:038.221   Hardware: V1.00
T2BC8 000:038.347   S/N: 801030549
T2BC8 000:038.390   OEM: SEGGER
T2BC8 000:038.420   Feature(s): FlashBP, GDB
T2BC8 000:042.384   Bootloader: 2016 Nov 30
T2BC8 000:043.624   USB speed mode: Full speed (12 MBit/s)
T2BC8 000:044.350   TELNET listener socket opened on port 19021
T2BC8 000:045.037   WEBSRV WEBSRV_Init(): Starting webserver thread(s)
T2BC8 000:045.446   WEBSRV Webserver running on local port 19080
T2BC8 000:045.695   Looking for J-Link GUI Server exe at: C:\Keil_v5\ARM\Segger\JLinkGUIServer.exe
T2BC8 000:045.976   Looking for J-Link GUI Server exe at: C:\Program Files\SEGGER\JLink\JLinkGUIServer.exe
T2BC8 000:046.053   Forking J-Link GUI Server: C:\Program Files\SEGGER\JLink\JLinkGUIServer.exe
T2BC8 000:053.825   J-Link GUI Server info: "J-Link GUI server V7.88i "
T2BC8 000:054.184 - 50.608ms returns "O.K."
T2BC8 000:054.217 JLINK_GetEmuCaps()
T2BC8 000:054.229 - 0.016ms returns 0xB8EA5A33
T2BC8 000:054.250 JLINK_TIF_GetAvailable(...)
T2BC8 000:054.460 - 0.224ms
T2BC8 000:054.484 JLINK_SetErrorOutHandler(...)
T2BC8 000:054.495 - 0.015ms
T2BC8 000:054.519 JLINK_ExecCommand("ProjectFile = "C:\BlueNRG-1_2 DK 3.2.3\Project\BLE_Examples\Distance_Measurement_Board\MDK-ARM\BlueNRG-2\JLinkSettings.ini"", ...). 
T2BC8 000:066.965   Ref file found at: C:\Keil_v5\ARM\Segger\JLinkDevices.ref
T2BC8 000:067.054   REF file references invalid XML file: C:\Program Files\SEGGER\JLink\JLinkDevices.xml
T2BC8 000:068.538   Device "BLUENRG-232" selected.
T2BC8 000:068.880 - 14.367ms returns 0x00
T2BC8 000:069.730 JLINK_ExecCommand("Device = BlueNRG-2", ...). 
T2BC8 000:070.856   Device "BLUENRG-232" selected.
T2BC8 000:071.168 - 1.427ms returns 0x00
T2BC8 000:071.180 JLINK_ExecCommand("DisableConnectionTimeout", ...). 
T2BC8 000:071.189 - 0.004ms returns 0x01
T2BC8 000:071.197 JLINK_GetHardwareVersion()
T2BC8 000:071.203 - 0.008ms returns 10000
T2BC8 000:071.213 JLINK_GetDLLVersion()
T2BC8 000:071.219 - 0.008ms returns 78809
T2BC8 000:071.226 JLINK_GetOEMString(...)
T2BC8 000:071.232 JLINK_GetFirmwareString(...)
T2BC8 000:071.239 - 0.009ms
T2BC8 000:074.389 JLINK_GetDLLVersion()
T2BC8 000:074.406 - 0.019ms returns 78809
T2BC8 000:074.413 JLINK_GetCompileDateTime()
T2BC8 000:074.419 - 0.009ms
T2BC8 000:075.766 JLINK_GetFirmwareString(...)
T2BC8 000:075.794 - 0.031ms
T2BC8 000:076.791 JLINK_GetHardwareVersion()
T2BC8 000:076.806 - 0.018ms returns 10000
T2BC8 000:080.437 JLINK_GetSN()
T2BC8 000:080.460 - 0.026ms returns 801030549
T2BC8 000:093.388 JLINK_GetOEMString(...)
T2BC8 000:119.240 JLINK_TIF_Select(JLINKARM_TIF_SWD)
T2BC8 000:119.927 - 0.701ms returns 0x00
T2BC8 000:119.954 JLINK_HasError()
T2BC8 000:119.969 JLINK_SetSpeed(5000)
T2BC8 000:120.085 - 0.123ms
T2BC8 000:120.099 JLINK_GetId()
T2BC8 000:127.328   Found SW-DP with ID 0x0BB11477
T2BC8 000:135.666   DPIDR: 0x0BB11477
T2BC8 000:141.324   CoreSight SoC-400 or earlier
T2BC8 000:157.054   Scanning AP map to find all available APs
T2BC8 000:159.937   AP[1]: Stopped AP scan as end of AP map has been reached
T2BC8 000:164.182   AP[0]: AHB-AP (IDR: 0x04770021)
T2BC8 000:166.738   Iterating through AP map to find AHB-AP to use
T2BC8 000:172.460   AP[0]: Core found
T2BC8 000:174.671   AP[0]: AHB-AP ROM base: 0xF0000000
T2BC8 000:184.845   CPUID register: 0x410CC200. Implementer code: 0x41 (ARM)
T2BC8 000:192.577   Found Cortex-M0 r0p0, Little endian.
T2BC8 000:193.269   -- Max. mem block: 0x00002BA8
T2BC8 000:193.779   CPU_ReadMem(4 bytes @ 0xE000EDF0)
T2BC8 000:194.128   CPU_WriteMem(4 bytes @ 0xE000EDF0)
T2BC8 000:194.681   CPU_ReadMem(4 bytes @ 0xE0002000)
T2BC8 000:199.548   FPUnit: 4 code (BP) slots and 0 literal slots
T2BC8 000:199.568   CPU_ReadMem(4 bytes @ 0xE000EDFC)
T2BC8 000:199.950   CPU_WriteMem(4 bytes @ 0xE000EDFC)
T2BC8 000:200.445   CPU_ReadMem(4 bytes @ 0xE0001000)
T2BC8 000:200.883   CPU_WriteMem(4 bytes @ 0xE0001000)
T2BC8 000:203.187   CoreSight components:
T2BC8 000:206.089   ROMTbl[0] @ F0000000
T2BC8 000:206.131   CPU_ReadMem(64 bytes @ 0xF0000000)
T2BC8 000:206.882   CPU_ReadMem(32 bytes @ 0xD00FFFE0)
T2BC8 000:209.082   [0][0]: D00FF000 CID 00000000 PID 00000000 ???
T2BC8 000:212.103   SetupTarget() start
T2BC8 000:212.141    J-Link Script File: Executing SetupTarget()
T2BC8 000:212.172   CPU_ReadMem(4 bytes @ 0x10040000)
T2BC8 000:214.063   SetupTarget() end - Took 369us
T2BC8 000:214.434 - 94.339ms returns 0x0BB11477
T2BC8 000:214.449 JLINK_GetDLLVersion()
T2BC8 000:214.454 - 0.008ms returns 78809
T2BC8 000:214.462 JLINK_CORE_GetFound()
T2BC8 000:214.467 - 0.007ms returns 0x60000FF
T2BC8 000:214.475 JLINK_GetDebugInfo(0x100 = JLINKARM_ROM_TABLE_ADDR_INDEX)
T2BC8 000:214.496   Value=0xF0000000
T2BC8 000:214.505 - 0.033ms returns 0
T2BC8 000:216.296 JLINK_GetDebugInfo(0x100 = JLINKARM_ROM_TABLE_ADDR_INDEX)
T2BC8 000:216.347   Value=0xF0000000
T2BC8 000:216.357 - 0.064ms returns 0
T2BC8 000:216.365 JLINK_GetDebugInfo(0x101 = JLINKARM_DEBUG_INFO_ETM_ADDR_INDEX)
T2BC8 000:216.372   Value=0x00000000
T2BC8 000:216.381 - 0.018ms returns 0
T2BC8 000:216.388 JLINK_ReadMemEx(0xE0041FF0, 0x10 Bytes, Flags = 0x02000004)
T2BC8 000:216.410   CPU_ReadMem(16 bytes @ 0xE0041FF0)
T2BC8 000:217.016   Data:  00 00 00 00 00 00 00 00 00 00 00 00 00 00 00 00
T2BC8 000:217.041 - 0.656ms returns 16 (0x10)
T2BC8 000:217.053 JLINK_GetDebugInfo(0x102 = JLINKARM_DEBUG_INFO_MTB_ADDR_INDEX)
T2BC8 000:217.061   Value=0x00000000
T2BC8 000:217.072 - 0.022ms returns 0
T2BC8 000:217.108 JLINK_GetDebugInfo(0x103 = JLINKARM_DEBUG_INFO_TPIU_ADDR_INDEX)
T2BC8 000:217.120   Value=0x00000000
T2BC8 000:217.188 - 0.093ms returns 0
T2BC8 000:217.215 JLINK_ReadMemEx(0xE0040FF0, 0x10 Bytes, Flags = 0x02000004)
T2BC8 000:217.243   CPU_ReadMem(16 bytes @ 0xE0040FF0)
T2BC8 000:217.655   Data:  00 00 00 00 00 00 00 00 00 00 00 00 00 00 00 00
T2BC8 000:217.674 - 0.463ms returns 16 (0x10)
T2BC8 000:217.685 JLINK_GetDebugInfo(0x104 = JLINKARM_DEBUG_INFO_ITM_ADDR_INDEX)
T2BC8 000:217.692   Value=0xE0000000
T2BC8 000:217.702 - 0.020ms returns 0
T2BC8 000:217.710 JLINK_GetDebugInfo(0x105 = JLINKARM_DEBUG_INFO_DWT_ADDR_INDEX)
T2BC8 000:217.717   Value=0xE0001000
T2BC8 000:217.727 - 0.020ms returns 0
T2BC8 000:217.735 JLINK_GetDebugInfo(0x106 = JLINKARM_DEBUG_INFO_FPB_ADDR_INDEX)
T2BC8 000:217.742   Value=0xE0002000
T2BC8 000:217.751 - 0.020ms returns 0
T2BC8 000:217.759 JLINK_GetDebugInfo(0x107 = JLINKARM_DEBUG_INFO_NVIC_ADDR_INDEX)
T2BC8 000:217.766   Value=0xE000E000
T2BC8 000:217.776 - 0.020ms returns 0
T2BC8 000:217.784 JLINK_GetDebugInfo(0x10C = JLINKARM_DEBUG_INFO_DBG_ADDR_INDEX)
T2BC8 000:217.791   Value=0xE000EDF0
T2BC8 000:217.800 - 0.020ms returns 0
T2BC8 000:217.808 JLINK_GetDebugInfo(0x01 = Unknown)
T2BC8 000:217.818   Value=0x00000000
T2BC8 000:217.828 - 0.022ms returns 0
T2BC8 000:217.835 JLINK_ReadMemU32(0xE000ED00, 0x1 Items)
T2BC8 000:217.849   CPU_ReadMem(4 bytes @ 0xE000ED00)
T2BC8 000:218.353   Data:  00 C2 0C 41
T2BC8 000:218.369   Debug reg: CPUID
T2BC8 000:218.382 - 0.550ms returns 1 (0x1)
T2BC8 000:218.394 JLINK_GetDebugInfo(0x10F = JLINKARM_DEBUG_INFO_HAS_CORTEX_M_SECURITY_EXT_INDEX)
T2BC8 000:218.403   Value=0x00000000
T2BC8 000:218.416 - 0.026ms returns 0
T2BC8 000:218.427 JLINK_HasError()
T2BC8 000:218.438 JLINK_SetResetType(JLINKARM_CM3_RESET_TYPE_NORMAL)
T2BC8 000:218.448 - 0.014ms returns JLINKARM_CM3_RESET_TYPE_NORMAL
T2BC8 000:218.458 JLINK_Reset()
T2BC8 000:221.512   ResetTarget() start
T2BC8 000:221.535    J-Link Script File: Executing ResetTarget()
T2BC8 000:221.546   CPU_ReadMem(4 bytes @ 0x10040004)
T2BC8 000:221.901   CPU_ReadMem(4 bytes @ 0xE0002000)
T2BC8 000:222.345   CPU_ReadMem(4 bytes @ 0xE0002008)
T2BC8 000:222.790   CPU is running
T2BC8 000:222.799   CPU_WriteMem(4 bytes @ 0xE0002000)
T2BC8 000:223.283   CPU is running
T2BC8 000:223.292   CPU_WriteMem(4 bytes @ 0xE0002008)
T2BC8 000:223.728   CPU is running
T2BC8 000:223.753   CPU_WriteMem(4 bytes @ 0xE000ED0C)
T2BC8 000:330.165   CPU_WriteMem(4 bytes @ 0xE0002008)
T2BC8 000:330.846   CPU_WriteMem(4 bytes @ 0xE0002000)
T2BC8 000:338.104   ResetTarget() end - Took 110ms
T2BC8 000:341.445   CPU_WriteMem(4 bytes @ 0xE0002000)
T2BC8 000:342.260   CPU_ReadMem(4 bytes @ 0xE000EDFC)
T2BC8 000:342.784   CPU_ReadMem(4 bytes @ 0xE0001000)
T2BC8 000:343.347   CPU_WriteMem(4 bytes @ 0xE0001000)
T2BC8 000:343.972 - 125.550ms
T2BC8 000:344.039 JLINK_Halt()
T2BC8 000:344.056 - 0.024ms returns 0x00
T2BC8 000:344.074 JLINK_ReadMemU32(0xE000EDF0, 0x1 Items)
T2BC8 000:344.107   CPU_ReadMem(4 bytes @ 0xE000EDF0)
T2BC8 000:344.983   Data:  03 00 03 00
T2BC8 000:345.035   Debug reg: DHCSR
T2BC8 000:345.056 - 0.989ms returns 1 (0x1)
T2BC8 000:345.084 JLINK_WriteU32_64(0xE000EDF0, 0xA05F0003)
T2BC8 000:345.106   Debug reg: DHCSR
T2BC8 000:345.753   CPU_WriteMem(4 bytes @ 0xE000EDF0)
T2BC8 000:346.321 - 1.256ms returns 0 (0x00000000)
T2BC8 000:346.358 JLINK_WriteU32_64(0xE000EDFC, 0x01000000)
T2BC8 000:346.373   Debug reg: DEMCR
T2BC8 000:346.407   CPU_WriteMem(4 bytes @ 0xE000EDFC)
T2BC8 000:347.046 - 0.717ms returns 0 (0x00000000)
T2BC8 000:362.275 JLINK_GetHWStatus(...)
T2BC8 000:363.245 - 0.982ms returns 0
T2BC8 000:370.533 JLINK_GetNumBPUnits(Type = 0xFFFFFF00)
T2BC8 000:370.576 - 0.050ms returns 0x04
T2BC8 000:370.593 JLINK_GetNumBPUnits(Type = 0xF0)
T2BC8 000:370.605 - 0.019ms returns 0x2000
T2BC8 000:370.620 JLINK_GetNumWPUnits()
T2BC8 000:370.632 - 0.018ms returns 2
T2BC8 000:379.477 JLINK_GetSpeed()
T2BC8 000:379.496 - 0.021ms returns 4000
T2BC8 000:382.245 JLINK_ReadMemU32(0xE000E004, 0x1 Items)
T2BC8 000:382.268   CPU_ReadMem(4 bytes @ 0xE000E004)
T2BC8 000:382.831   Data:  00 00 00 00
T2BC8 000:382.853 - 0.611ms returns 1 (0x1)
T2BC8 000:382.865 JLINK_Halt()
T2BC8 000:382.870 - 0.007ms returns 0x00
T2BC8 000:382.875 JLINK_IsHalted()
T2BC8 000:382.881 - 0.008ms returns TRUE
T2BC8 000:386.044 JLINK_WriteMem(0x200002CC, 0x100 Bytes, ...)
T2BC8 000:386.064   Data:  00 BE 0A E0 0D 78 2D 06 68 40 08 24 40 00 00 D3 ...
T2BC8 000:386.427   CPU_WriteMem(256 bytes @ 0x200002CC)
T2BC8 000:388.435 - 2.402ms returns 0x100
T2BC8 000:388.495 JLINK_HasError()
T2BC8 000:388.503 JLINK_WriteReg(R0, 0x10040000)
T2BC8 000:388.511 - 0.010ms returns 0
T2BC8 000:388.517 JLINK_WriteReg(R1, 0x00B71B00)
T2BC8 000:388.522 - 0.007ms returns 0
T2BC8 000:388.528 JLINK_WriteReg(R2, 0x00000001)
T2BC8 000:388.533 - 0.007ms returns 0
T2BC8 000:388.539 JLINK_WriteReg(R3, 0x00000000)
T2BC8 000:388.544 - 0.007ms returns 0
T2BC8 000:388.550 JLINK_WriteReg(R4, 0x00000000)
T2BC8 000:388.556 - 0.009ms returns 0
T2BC8 000:388.563 JLINK_WriteReg(R5, 0x00000000)
T2BC8 000:388.570 - 0.009ms returns 0
T2BC8 000:388.577 JLINK_WriteReg(R6, 0x00000000)
T2BC8 000:388.583 - 0.009ms returns 0
T2BC8 000:388.590 JLINK_WriteReg(R7, 0x00000000)
T2BC8 000:388.596 - 0.009ms returns 0
T2BC8 000:388.603 JLINK_WriteReg(R8, 0x00000000)
T2BC8 000:388.613 - 0.013ms returns 0
T2BC8 000:388.621 JLINK_WriteReg(R9, 0x200003C8)
T2BC8 000:388.628 - 0.010ms returns 0
T2BC8 000:388.634 JLINK_WriteReg(R10, 0x00000000)
T2BC8 000:388.639 - 0.007ms returns 0
T2BC8 000:388.645 JLINK_WriteReg(R11, 0x00000000)
T2BC8 000:388.650 - 0.007ms returns 0
T2BC8 000:388.656 JLINK_WriteReg(R12, 0x00000000)
T2BC8 000:388.661 - 0.007ms returns 0
T2BC8 000:388.666 JLINK_WriteReg(R13 (SP), 0x200012CC)
T2BC8 000:388.672 - 0.008ms returns 0
T2BC8 000:388.678 JLINK_WriteReg(R14, 0x200002CD)
T2BC8 000:388.683 - 0.008ms returns 0
T2BC8 000:388.689 JLINK_WriteReg(R15 (PC), 0x20000304)
T2BC8 000:388.695 - 0.008ms returns 0
T2BC8 000:388.701 JLINK_WriteReg(XPSR, 0x01000000)
T2BC8 000:388.706 - 0.007ms returns 0
T2BC8 000:388.712 JLINK_WriteReg(MSP, 0x200012CC)
T2BC8 000:388.719 - 0.010ms returns 0
T2BC8 000:388.725 JLINK_WriteReg(PSP, 0x200012CC)
T2BC8 000:388.731 - 0.008ms returns 0
T2BC8 000:388.737 JLINK_WriteReg(CFBP, 0x00000000)
T2BC8 000:388.742 - 0.008ms returns 0
T2BC8 000:388.748 JLINK_SetBPEx(Addr = 0x200002CC, Type = 0xFFFFFFF2)
T2BC8 000:388.756   CPU_ReadMem(2 bytes @ 0x200002CC)
T2BC8 000:389.323 - 0.586ms returns 0x00000001
T2BC8 000:389.340 JLINK_Go()
T2BC8 000:389.351   CPU_WriteMem(2 bytes @ 0x200002CC)
T2BC8 000:390.043   CPU_ReadMem(4 bytes @ 0xE0001000)
T2BC8 000:390.722   CPU_WriteMem(4 bytes @ 0xE0001000)
T2BC8 000:391.209   CPU_WriteMem(4 bytes @ 0xE0002008)
T2BC8 000:391.249   CPU_WriteMem(4 bytes @ 0xE000200C)
T2BC8 000:391.266   CPU_WriteMem(4 bytes @ 0xE0002010)
T2BC8 000:391.283   CPU_WriteMem(4 bytes @ 0xE0002014)
T2BC8 000:392.400   CPU_WriteMem(4 bytes @ 0xE0001004)
T2BC8 000:395.731 - 6.402ms
T2BC8 000:395.748 JLINK_IsHalted()
T2BC8 000:398.894   CPU_ReadMem(2 bytes @ 0x200002CC)
T2BC8 000:399.505 - 3.770ms returns TRUE
T2BC8 000:399.525 JLINK_ReadReg(R15 (PC))
T2BC8 000:399.534 - 0.012ms returns 0x200002CC
T2BC8 000:399.541 JLINK_ClrBPEx(BPHandle = 0x00000001)
T2BC8 000:399.547 - 0.008ms returns 0x00
T2BC8 000:399.553 JLINK_ReadReg(R0)
T2BC8 000:399.612 - 0.061ms returns 0x00000000
T2BC8 000:399.895 JLINK_HasError()
T2BC8 000:399.906 JLINK_WriteReg(R0, 0x10040000)
T2BC8 000:399.913 - 0.009ms returns 0
T2BC8 000:399.919 JLINK_WriteReg(R1, 0x00000800)
T2BC8 000:399.925 - 0.008ms returns 0
T2BC8 000:399.930 JLINK_WriteReg(R2, 0x000000FF)
T2BC8 000:399.936 - 0.007ms returns 0
T2BC8 000:399.941 JLINK_WriteReg(R3, 0x00000000)
T2BC8 000:399.947 - 0.007ms returns 0
T2BC8 000:399.953 JLINK_WriteReg(R4, 0x00000000)
T2BC8 000:399.958 - 0.007ms returns 0
T2BC8 000:399.964 JLINK_WriteReg(R5, 0x00000000)
T2BC8 000:399.969 - 0.007ms returns 0
T2BC8 000:399.975 JLINK_WriteReg(R6, 0x00000000)
T2BC8 000:399.980 - 0.007ms returns 0
T2BC8 000:399.986 JLINK_WriteReg(R7, 0x00000000)
T2BC8 000:399.991 - 0.007ms returns 0
T2BC8 000:399.997 JLINK_WriteReg(R8, 0x00000000)
T2BC8 000:400.002 - 0.007ms returns 0
T2BC8 000:400.008 JLINK_WriteReg(R9, 0x200003C8)
T2BC8 000:400.013 - 0.007ms returns 0
T2BC8 000:400.019 JLINK_WriteReg(R10, 0x00000000)
T2BC8 000:400.024 - 0.007ms returns 0
T2BC8 000:400.030 JLINK_WriteReg(R11, 0x00000000)
T2BC8 000:400.035 - 0.007ms returns 0
T2BC8 000:400.041 JLINK_WriteReg(R12, 0x00000000)
T2BC8 000:400.046 - 0.007ms returns 0
T2BC8 000:400.052 JLINK_WriteReg(R13 (SP), 0x200012CC)
T2BC8 000:400.058 - 0.008ms returns 0
T2BC8 000:400.064 JLINK_WriteReg(R14, 0x200002CD)
T2BC8 000:400.069 - 0.008ms returns 0
T2BC8 000:400.075 JLINK_WriteReg(R15 (PC), 0x200002EC)
T2BC8 000:400.086 - 0.014ms returns 0
T2BC8 000:400.093 JLINK_WriteReg(XPSR, 0x01000000)
T2BC8 000:400.098 - 0.008ms returns 0
T2BC8 000:400.105 JLINK_WriteReg(MSP, 0x200012CC)
T2BC8 000:400.111 - 0.007ms returns 0
T2BC8 000:400.117 JLINK_WriteReg(PSP, 0x200012CC)
T2BC8 000:400.122 - 0.008ms returns 0
T2BC8 000:400.128 JLINK_WriteReg(CFBP, 0x00000000)
T2BC8 000:400.133 - 0.007ms returns 0
T2BC8 000:400.139 JLINK_SetBPEx(Addr = 0x200002CC, Type = 0xFFFFFFF2)
T2BC8 000:400.146 - 0.009ms returns 0x00000002
T2BC8 000:400.152 JLINK_Go()
T2BC8 000:400.163   CPU_ReadMem(4 bytes @ 0xE0001000)
T2BC8 000:404.012 - 3.877ms
T2BC8 000:404.044 JLINK_IsHalted()
T2BC8 000:407.441   CPU_ReadMem(2 bytes @ 0x200002CC)
T2BC8 000:408.033 - 4.009ms returns TRUE
T2BC8 000:408.066 JLINK_ReadReg(R15 (PC))
T2BC8 000:408.134 - 0.095ms returns 0x200002CC
T2BC8 000:408.178 JLINK_ClrBPEx(BPHandle = 0x00000002)
T2BC8 000:408.191 - 0.017ms returns 0x00
T2BC8 000:408.205 JLINK_ReadReg(R0)
T2BC8 000:408.216 - 0.015ms returns 0x00000001
T2BC8 000:408.262 JLINK_HasError()
T2BC8 000:408.274 JLINK_WriteReg(R0, 0x10040000)
T2BC8 000:408.285 - 0.015ms returns 0
T2BC8 000:408.295 JLINK_WriteReg(R1, 0x00000800)
T2BC8 000:408.304 - 0.013ms returns 0
T2BC8 000:408.314 JLINK_WriteReg(R2, 0x000000FF)
T2BC8 000:408.323 - 0.013ms returns 0
T2BC8 000:408.415 JLINK_WriteReg(R3, 0x00000000)
T2BC8 000:408.428 - 0.017ms returns 0
T2BC8 000:408.438 JLINK_WriteReg(R4, 0x00000000)
T2BC8 000:408.447 - 0.013ms returns 0
T2BC8 000:408.457 JLINK_WriteReg(R5, 0x00000000)
T2BC8 000:408.466 - 0.014ms returns 0
T2BC8 000:408.476 JLINK_WriteReg(R6, 0x00000000)
T2BC8 000:408.485 - 0.013ms returns 0
T2BC8 000:408.495 JLINK_WriteReg(R7, 0x00000000)
T2BC8 000:408.504 - 0.013ms returns 0
T2BC8 000:408.514 JLINK_WriteReg(R8, 0x00000000)
T2BC8 000:408.523 - 0.013ms returns 0
T2BC8 000:408.532 JLINK_WriteReg(R9, 0x200003C8)
T2BC8 000:408.541 - 0.013ms returns 0
T2BC8 000:408.551 JLINK_WriteReg(R10, 0x00000000)
T2BC8 000:408.560 - 0.013ms returns 0
T2BC8 000:408.570 JLINK_WriteReg(R11, 0x00000000)
T2BC8 000:408.579 - 0.013ms returns 0
T2BC8 000:408.588 JLINK_WriteReg(R12, 0x00000000)
T2BC8 000:408.597 - 0.013ms returns 0
T2BC8 000:408.607 JLINK_WriteReg(R13 (SP), 0x200012CC)
T2BC8 000:408.616 - 0.013ms returns 0
T2BC8 000:408.626 JLINK_WriteReg(R14, 0x200002CD)
T2BC8 000:408.635 - 0.013ms returns 0
T2BC8 000:408.645 JLINK_WriteReg(R15 (PC), 0x20000346)
T2BC8 000:408.654 - 0.013ms returns 0
T2BC8 000:408.664 JLINK_WriteReg(XPSR, 0x01000000)
T2BC8 000:408.673 - 0.013ms returns 0
T2BC8 000:408.683 JLINK_WriteReg(MSP, 0x200012CC)
T2BC8 000:408.692 - 0.013ms returns 0
T2BC8 000:408.702 JLINK_WriteReg(PSP, 0x200012CC)
T2BC8 000:408.710 - 0.013ms returns 0
T2BC8 000:408.720 JLINK_WriteReg(CFBP, 0x00000000)
T2BC8 000:408.729 - 0.013ms returns 0
T2BC8 000:408.739 JLINK_SetBPEx(Addr = 0x200002CC, Type = 0xFFFFFFF2)
T2BC8 000:408.750 - 0.015ms returns 0x00000003
T2BC8 000:408.760 JLINK_Go()
T2BC8 000:408.778   CPU_ReadMem(4 bytes @ 0xE0001000)
T2BC8 000:412.199 - 3.462ms
T2BC8 000:412.233 JLINK_IsHalted()
T2BC8 000:412.836 - 0.626ms returns FALSE
T2BC8 000:412.872 JLINK_HasError()
T2BC8 000:427.639 JLINK_IsHalted()
T2BC8 000:430.888   CPU_ReadMem(2 bytes @ 0x200002CC)
T2BC8 000:431.422 - 3.808ms returns TRUE
T2BC8 000:431.454 JLINK_ReadReg(R15 (PC))
T2BC8 000:431.464 - 0.012ms returns 0x200002CC
T2BC8 000:431.471 JLINK_ClrBPEx(BPHandle = 0x00000003)
T2BC8 000:431.478 - 0.009ms returns 0x00
T2BC8 000:431.487 JLINK_ReadReg(R0)
T2BC8 000:431.493 - 0.008ms returns 0x00000000
T2BC8 000:431.874 JLINK_HasError()
T2BC8 000:431.886 JLINK_WriteReg(R0, 0x10040800)
T2BC8 000:431.895 - 0.012ms returns 0
T2BC8 000:431.902 JLINK_WriteReg(R1, 0x00000800)
T2BC8 000:431.909 - 0.009ms returns 0
T2BC8 000:431.915 JLINK_WriteReg(R2, 0x000000FF)
T2BC8 000:431.950 - 0.037ms returns 0
T2BC8 000:431.957 JLINK_WriteReg(R3, 0x00000000)
T2BC8 000:431.963 - 0.008ms returns 0
T2BC8 000:431.969 JLINK_WriteReg(R4, 0x00000000)
T2BC8 000:431.975 - 0.008ms returns 0
T2BC8 000:431.982 JLINK_WriteReg(R5, 0x00000000)
T2BC8 000:431.988 - 0.009ms returns 0
T2BC8 000:431.995 JLINK_WriteReg(R6, 0x00000000)
T2BC8 000:432.001 - 0.009ms returns 0
T2BC8 000:432.008 JLINK_WriteReg(R7, 0x00000000)
T2BC8 000:432.014 - 0.008ms returns 0
T2BC8 000:432.021 JLINK_WriteReg(R8, 0x00000000)
T2BC8 000:432.026 - 0.008ms returns 0
T2BC8 000:432.033 JLINK_WriteReg(R9, 0x200003C8)
T2BC8 000:432.039 - 0.008ms returns 0
T2BC8 000:432.050 JLINK_WriteReg(R10, 0x00000000)
T2BC8 000:432.056 - 0.009ms returns 0
T2BC8 000:432.063 JLINK_WriteReg(R11, 0x00000000)
T2BC8 000:432.069 - 0.008ms returns 0
T2BC8 000:432.075 JLINK_WriteReg(R12, 0x00000000)
T2BC8 000:432.082 - 0.038ms returns 0
T2BC8 000:432.123 JLINK_WriteReg(R13 (SP), 0x200012CC)
T2BC8 000:432.133 - 0.014ms returns 0
T2BC8 000:432.141 JLINK_WriteReg(R14, 0x200002CD)
T2BC8 000:432.147 - 0.009ms returns 0
T2BC8 000:432.154 JLINK_WriteReg(R15 (PC), 0x200002EC)
T2BC8 000:432.160 - 0.009ms returns 0
T2BC8 000:432.167 JLINK_WriteReg(XPSR, 0x01000000)
T2BC8 000:432.173 - 0.009ms returns 0
T2BC8 000:432.180 JLINK_WriteReg(MSP, 0x200012CC)
T2BC8 000:432.186 - 0.009ms returns 0
T2BC8 000:432.193 JLINK_WriteReg(PSP, 0x200012CC)
T2BC8 000:432.201 - 0.010ms returns 0
T2BC8 000:432.208 JLINK_WriteReg(CFBP, 0x00000000)
T2BC8 000:432.217 - 0.015ms returns 0
T2BC8 000:432.228 JLINK_SetBPEx(Addr = 0x200002CC, Type = 0xFFFFFFF2)
T2BC8 000:432.236 - 0.011ms returns 0x00000004
T2BC8 000:432.243 JLINK_Go()
T2BC8 000:432.255   CPU_ReadMem(4 bytes @ 0xE0001000)
T2BC8 000:435.936 - 3.705ms
T2BC8 000:435.961 JLINK_IsHalted()
T2BC8 000:439.103   CPU_ReadMem(2 bytes @ 0x200002CC)
T2BC8 000:439.558 - 3.615ms returns TRUE
T2BC8 000:439.591 JLINK_ReadReg(R15 (PC))
T2BC8 000:439.605 - 0.018ms returns 0x200002CC
T2BC8 000:439.615 JLINK_ClrBPEx(BPHandle = 0x00000004)
T2BC8 000:439.624 - 0.012ms returns 0x00
T2BC8 000:439.633 JLINK_ReadReg(R0)
T2BC8 000:439.641 - 0.011ms returns 0x00000001
T2BC8 000:439.650 JLINK_HasError()
T2BC8 000:439.660 JLINK_WriteReg(R0, 0x10040800)
T2BC8 000:439.668 - 0.012ms returns 0
T2BC8 000:439.677 JLINK_WriteReg(R1, 0x00000800)
T2BC8 000:439.685 - 0.012ms returns 0
T2BC8 000:439.694 JLINK_WriteReg(R2, 0x000000FF)
T2BC8 000:439.702 - 0.011ms returns 0
T2BC8 000:439.714 JLINK_WriteReg(R3, 0x00000000)
T2BC8 000:439.723 - 0.012ms returns 0
T2BC8 000:439.787 JLINK_WriteReg(R4, 0x00000000)
T2BC8 000:439.802 - 0.019ms returns 0
T2BC8 000:439.812 JLINK_WriteReg(R5, 0x00000000)
T2BC8 000:439.820 - 0.011ms returns 0
T2BC8 000:439.828 JLINK_WriteReg(R6, 0x00000000)
T2BC8 000:439.836 - 0.011ms returns 0
T2BC8 000:439.845 JLINK_WriteReg(R7, 0x00000000)
T2BC8 000:439.853 - 0.011ms returns 0
T2BC8 000:439.861 JLINK_WriteReg(R8, 0x00000000)
T2BC8 000:439.869 - 0.011ms returns 0
T2BC8 000:439.878 JLINK_WriteReg(R9, 0x200003C8)
T2BC8 000:439.886 - 0.011ms returns 0
T2BC8 000:439.894 JLINK_WriteReg(R10, 0x00000000)
T2BC8 000:439.902 - 0.011ms returns 0
T2BC8 000:439.911 JLINK_WriteReg(R11, 0x00000000)
T2BC8 000:439.919 - 0.011ms returns 0
T2BC8 000:439.927 JLINK_WriteReg(R12, 0x00000000)
T2BC8 000:439.935 - 0.011ms returns 0
T2BC8 000:439.944 JLINK_WriteReg(R13 (SP), 0x200012CC)
T2BC8 000:439.953 - 0.012ms returns 0
T2BC8 000:439.962 JLINK_WriteReg(R14, 0x200002CD)
T2BC8 000:439.969 - 0.011ms returns 0
T2BC8 000:439.978 JLINK_WriteReg(R15 (PC), 0x20000346)
T2BC8 000:439.986 - 0.011ms returns 0
T2BC8 000:439.995 JLINK_WriteReg(XPSR, 0x01000000)
T2BC8 000:440.003 - 0.012ms returns 0
T2BC8 000:440.012 JLINK_WriteReg(MSP, 0x200012CC)
T2BC8 000:440.020 - 0.011ms returns 0
T2BC8 000:440.028 JLINK_WriteReg(PSP, 0x200012CC)
T2BC8 000:440.036 - 0.012ms returns 0
T2BC8 000:440.045 JLINK_WriteReg(CFBP, 0x00000000)
T2BC8 000:440.053 - 0.011ms returns 0
T2BC8 000:440.062 JLINK_SetBPEx(Addr = 0x200002CC, Type = 0xFFFFFFF2)
T2BC8 000:440.072 - 0.013ms returns 0x00000005
T2BC8 000:440.081 JLINK_Go()
T2BC8 000:440.096   CPU_ReadMem(4 bytes @ 0xE0001000)
T2BC8 000:443.764 - 3.706ms
T2BC8 000:443.798 JLINK_IsHalted()
T2BC8 000:444.388 - 0.614ms returns FALSE
T2BC8 000:444.423 JLINK_HasError()
T2BC8 000:445.554 JLINK_IsHalted()
T2BC8 000:446.096 - 0.565ms returns FALSE
T2BC8 000:446.130 JLINK_HasError()
T2BC8 000:447.227 JLINK_IsHalted()
T2BC8 000:447.864 - 0.663ms returns FALSE
T2BC8 000:447.903 JLINK_HasError()
T2BC8 000:449.591 JLINK_IsHalted()
T2BC8 000:450.151 - 0.589ms returns FALSE
T2BC8 000:450.194 JLINK_HasError()
T2BC8 000:451.701 JLINK_IsHalted()
T2BC8 000:452.317 - 0.647ms returns FALSE
T2BC8 000:452.363 JLINK_HasError()
T2BC8 000:453.718 JLINK_IsHalted()
T2BC8 000:454.330 - 0.646ms returns FALSE
T2BC8 000:454.380 JLINK_HasError()
T2BC8 000:456.389 JLINK_IsHalted()
T2BC8 000:456.863 - 0.509ms returns FALSE
T2BC8 000:456.916 JLINK_HasError()
T2BC8 000:458.503 JLINK_IsHalted()
T2BC8 000:459.233 - 0.768ms returns FALSE
T2BC8 000:459.290 JLINK_HasError()
T2BC8 000:461.532 JLINK_IsHalted()
T2BC8 000:465.296   CPU_ReadMem(2 bytes @ 0x200002CC)
T2BC8 000:466.887 - 5.409ms returns TRUE
T2BC8 000:466.980 JLINK_ReadReg(R15 (PC))
T2BC8 000:467.015 - 0.045ms returns 0x200002CC
T2BC8 000:467.040 JLINK_ClrBPEx(BPHandle = 0x00000005)
T2BC8 000:467.063 - 0.033ms returns 0x00
T2BC8 000:467.087 JLINK_ReadReg(R0)
T2BC8 000:467.108 - 0.031ms returns 0x00000000
T2BC8 000:469.014 JLINK_HasError()
T2BC8 000:469.086 JLINK_WriteReg(R0, 0x10041000)
T2BC8 000:469.117 - 0.041ms returns 0
T2BC8 000:469.141 JLINK_WriteReg(R1, 0x00000800)
T2BC8 000:469.162 - 0.031ms returns 0
T2BC8 000:469.186 JLINK_WriteReg(R2, 0x000000FF)
T2BC8 000:469.207 - 0.031ms returns 0
T2BC8 000:469.230 JLINK_WriteReg(R3, 0x00000000)
T2BC8 000:469.250 - 0.030ms returns 0
T2BC8 000:469.273 JLINK_WriteReg(R4, 0x00000000)
T2BC8 000:469.314 - 0.051ms returns 0
T2BC8 000:469.338 JLINK_WriteReg(R5, 0x00000000)
T2BC8 000:469.358 - 0.031ms returns 0
T2BC8 000:469.380 JLINK_WriteReg(R6, 0x00000000)
T2BC8 000:469.399 - 0.027ms returns 0
T2BC8 000:469.419 JLINK_WriteReg(R7, 0x00000000)
T2BC8 000:469.438 - 0.027ms returns 0
T2BC8 000:469.458 JLINK_WriteReg(R8, 0x00000000)
T2BC8 000:469.477 - 0.027ms returns 0
T2BC8 000:469.498 JLINK_WriteReg(R9, 0x200003C8)
T2BC8 000:469.516 - 0.027ms returns 0
T2BC8 000:469.537 JLINK_WriteReg(R10, 0x00000000)
T2BC8 000:469.555 - 0.027ms returns 0
T2BC8 000:469.576 JLINK_WriteReg(R11, 0x00000000)
T2BC8 000:469.594 - 0.027ms returns 0
T2BC8 000:469.615 JLINK_WriteReg(R12, 0x00000000)
T2BC8 000:469.633 - 0.027ms returns 0
T2BC8 000:469.654 JLINK_WriteReg(R13 (SP), 0x200012CC)
T2BC8 000:469.674 - 0.029ms returns 0
T2BC8 000:469.695 JLINK_WriteReg(R14, 0x200002CD)
T2BC8 000:469.713 - 0.030ms returns 0
T2BC8 000:469.737 JLINK_WriteReg(R15 (PC), 0x200002EC)
T2BC8 000:469.756 - 0.028ms returns 0
T2BC8 000:469.777 JLINK_WriteReg(XPSR, 0x01000000)
T2BC8 000:469.796 - 0.028ms returns 0
T2BC8 000:469.816 JLINK_WriteReg(MSP, 0x200012CC)
T2BC8 000:469.835 - 0.028ms returns 0
T2BC8 000:469.856 JLINK_WriteReg(PSP, 0x200012CC)
T2BC8 000:469.875 - 0.027ms returns 0
T2BC8 000:469.895 JLINK_WriteReg(CFBP, 0x00000000)
T2BC8 000:469.914 - 0.027ms returns 0
T2BC8 000:469.936 JLINK_SetBPEx(Addr = 0x200002CC, Type = 0xFFFFFFF2)
T2BC8 000:469.959 - 0.032ms returns 0x00000006
T2BC8 000:469.980 JLINK_Go()
T2BC8 000:470.020   CPU_ReadMem(4 bytes @ 0xE0001000)
T2BC8 000:474.025 - 4.080ms
T2BC8 000:474.081 JLINK_IsHalted()
T2BC8 000:478.928   CPU_ReadMem(2 bytes @ 0x200002CC)
T2BC8 000:479.583 - 5.564ms returns TRUE
T2BC8 000:479.676 JLINK_ReadReg(R15 (PC))
T2BC8 000:479.704 - 0.037ms returns 0x200002CC
T2BC8 000:479.725 JLINK_ClrBPEx(BPHandle = 0x00000006)
T2BC8 000:479.744 - 0.027ms returns 0x00
T2BC8 000:479.764 JLINK_ReadReg(R0)
T2BC8 000:479.781 - 0.025ms returns 0x00000001
T2BC8 000:479.802 JLINK_HasError()
T2BC8 000:479.822 JLINK_WriteReg(R0, 0x10041000)
T2BC8 000:479.841 - 0.027ms returns 0
T2BC8 000:479.860 JLINK_WriteReg(R1, 0x00000800)
T2BC8 000:479.878 - 0.025ms returns 0
T2BC8 000:479.897 JLINK_WriteReg(R2, 0x000000FF)
T2BC8 000:479.914 - 0.025ms returns 0
T2BC8 000:479.933 JLINK_WriteReg(R3, 0x00000000)
T2BC8 000:479.951 - 0.026ms returns 0
T2BC8 000:479.970 JLINK_WriteReg(R4, 0x00000000)
T2BC8 000:479.988 - 0.026ms returns 0
T2BC8 000:480.007 JLINK_WriteReg(R5, 0x00000000)
T2BC8 000:480.023 - 0.025ms returns 0
T2BC8 000:480.042 JLINK_WriteReg(R6, 0x00000000)
T2BC8 000:480.059 - 0.025ms returns 0
T2BC8 000:480.078 JLINK_WriteReg(R7, 0x00000000)
T2BC8 000:480.095 - 0.025ms returns 0
T2BC8 000:480.114 JLINK_WriteReg(R8, 0x00000000)
T2BC8 000:480.131 - 0.025ms returns 0
T2BC8 000:480.150 JLINK_WriteReg(R9, 0x200003C8)
T2BC8 000:480.168 - 0.026ms returns 0
T2BC8 000:480.186 JLINK_WriteReg(R10, 0x00000000)
T2BC8 000:480.204 - 0.025ms returns 0
T2BC8 000:480.222 JLINK_WriteReg(R11, 0x00000000)
T2BC8 000:480.240 - 0.025ms returns 0
T2BC8 000:480.258 JLINK_WriteReg(R12, 0x00000000)
T2BC8 000:480.275 - 0.025ms returns 0
T2BC8 000:480.294 JLINK_WriteReg(R13 (SP), 0x200012CC)
T2BC8 000:480.312 - 0.026ms returns 0
T2BC8 000:480.331 JLINK_WriteReg(R14, 0x200002CD)
T2BC8 000:480.348 - 0.025ms returns 0
T2BC8 000:480.366 JLINK_WriteReg(R15 (PC), 0x20000346)
T2BC8 000:480.384 - 0.025ms returns 0
T2BC8 000:480.402 JLINK_WriteReg(XPSR, 0x01000000)
T2BC8 000:480.420 - 0.025ms returns 0
T2BC8 000:480.439 JLINK_WriteReg(MSP, 0x200012CC)
T2BC8 000:480.456 - 0.031ms returns 0
T2BC8 000:480.484 JLINK_WriteReg(PSP, 0x200012CC)
T2BC8 000:480.502 - 0.025ms returns 0
T2BC8 000:480.521 JLINK_WriteReg(CFBP, 0x00000000)
T2BC8 000:480.538 - 0.025ms returns 0
T2BC8 000:480.557 JLINK_SetBPEx(Addr = 0x200002CC, Type = 0xFFFFFFF2)
T2BC8 000:480.576 - 0.027ms returns 0x00000007
T2BC8 000:480.596 JLINK_Go()
T2BC8 000:480.639   CPU_ReadMem(4 bytes @ 0xE0001000)
T2BC8 000:485.198 - 4.650ms
T2BC8 000:485.272 JLINK_IsHalted()
T2BC8 000:485.933 - 0.705ms returns FALSE
T2BC8 000:486.006 JLINK_HasError()
T2BC8 000:490.333 JLINK_IsHalted()
T2BC8 000:490.978 - 0.681ms returns FALSE
T2BC8 000:491.031 JLINK_HasError()
T2BC8 000:492.139 JLINK_IsHalted()
T2BC8 000:492.812 - 0.712ms returns FALSE
T2BC8 000:492.870 JLINK_HasError()
T2BC8 000:494.165 JLINK_IsHalted()
T2BC8 000:495.159 - 1.039ms returns FALSE
T2BC8 000:495.225 JLINK_HasError()
T2BC8 000:497.077 JLINK_IsHalted()
T2BC8 000:497.817 - 0.788ms returns FALSE
T2BC8 000:497.887 JLINK_HasError()
T2BC8 000:500.088 JLINK_IsHalted()
T2BC8 000:503.625   CPU_ReadMem(2 bytes @ 0x200002CC)
T2BC8 000:504.371 - 4.325ms returns TRUE
T2BC8 000:504.434 JLINK_ReadReg(R15 (PC))
T2BC8 000:504.461 - 0.035ms returns 0x200002CC
T2BC8 000:504.482 JLINK_ClrBPEx(BPHandle = 0x00000007)
T2BC8 000:504.505 - 0.033ms returns 0x00
T2BC8 000:504.528 JLINK_ReadReg(R0)
T2BC8 000:504.548 - 0.029ms returns 0x00000000
T2BC8 000:506.176 JLINK_HasError()
T2BC8 000:506.229 JLINK_WriteReg(R0, 0x10041800)
T2BC8 000:506.255 - 0.035ms returns 0
T2BC8 000:506.275 JLINK_WriteReg(R1, 0x00000800)
T2BC8 000:506.297 - 0.030ms returns 0
T2BC8 000:506.316 JLINK_WriteReg(R2, 0x000000FF)
T2BC8 000:506.335 - 0.026ms returns 0
T2BC8 000:506.354 JLINK_WriteReg(R3, 0x00000000)
T2BC8 000:506.371 - 0.026ms returns 0
T2BC8 000:506.391 JLINK_WriteReg(R4, 0x00000000)
T2BC8 000:506.408 - 0.025ms returns 0
T2BC8 000:506.427 JLINK_WriteReg(R5, 0x00000000)
T2BC8 000:506.444 - 0.025ms returns 0
T2BC8 000:506.463 JLINK_WriteReg(R6, 0x00000000)
T2BC8 000:506.480 - 0.025ms returns 0
T2BC8 000:506.499 JLINK_WriteReg(R7, 0x00000000)
T2BC8 000:506.517 - 0.026ms returns 0
T2BC8 000:506.536 JLINK_WriteReg(R8, 0x00000000)
T2BC8 000:506.553 - 0.024ms returns 0
T2BC8 000:506.570 JLINK_WriteReg(R9, 0x200003C8)
T2BC8 000:506.586 - 0.023ms returns 0
T2BC8 000:506.604 JLINK_WriteReg(R10, 0x00000000)
T2BC8 000:506.620 - 0.023ms returns 0
T2BC8 000:506.638 JLINK_WriteReg(R11, 0x00000000)
T2BC8 000:506.653 - 0.023ms returns 0
T2BC8 000:506.671 JLINK_WriteReg(R12, 0x00000000)
T2BC8 000:506.686 - 0.023ms returns 0
T2BC8 000:506.704 JLINK_WriteReg(R13 (SP), 0x200012CC)
T2BC8 000:506.721 - 0.024ms returns 0
T2BC8 000:506.738 JLINK_WriteReg(R14, 0x200002CD)
T2BC8 000:506.754 - 0.023ms returns 0
T2BC8 000:506.771 JLINK_WriteReg(R15 (PC), 0x200002EC)
T2BC8 000:506.787 - 0.023ms returns 0
T2BC8 000:506.805 JLINK_WriteReg(XPSR, 0x01000000)
T2BC8 000:506.821 - 0.023ms returns 0
T2BC8 000:506.838 JLINK_WriteReg(MSP, 0x200012CC)
T2BC8 000:506.854 - 0.023ms returns 0
T2BC8 000:506.871 JLINK_WriteReg(PSP, 0x200012CC)
T2BC8 000:506.887 - 0.023ms returns 0
T2BC8 000:506.904 JLINK_WriteReg(CFBP, 0x00000000)
T2BC8 000:506.920 - 0.023ms returns 0
T2BC8 000:506.937 JLINK_SetBPEx(Addr = 0x200002CC, Type = 0xFFFFFFF2)
T2BC8 000:506.956 - 0.026ms returns 0x00000008
T2BC8 000:506.974 JLINK_Go()
T2BC8 000:507.006   CPU_ReadMem(4 bytes @ 0xE0001000)
T2BC8 000:510.776 - 3.835ms
T2BC8 000:510.825 JLINK_IsHalted()
T2BC8 000:514.248   CPU_ReadMem(2 bytes @ 0x200002CC)
T2BC8 000:514.924 - 4.143ms returns TRUE
T2BC8 000:514.997 JLINK_ReadReg(R15 (PC))
T2BC8 000:515.027 - 0.039ms returns 0x200002CC
T2BC8 000:515.188 JLINK_ClrBPEx(BPHandle = 0x00000008)
T2BC8 000:515.228 - 0.050ms returns 0x00
T2BC8 000:515.342 JLINK_ReadReg(R0)
T2BC8 000:515.364 - 0.031ms returns 0x00000001
T2BC8 000:515.386 JLINK_HasError()
T2BC8 000:515.407 JLINK_WriteReg(R0, 0x10041800)
T2BC8 000:515.427 - 0.028ms returns 0
T2BC8 000:515.446 JLINK_WriteReg(R1, 0x00000800)
T2BC8 000:515.464 - 0.025ms returns 0
T2BC8 000:515.579 JLINK_WriteReg(R2, 0x000000FF)
T2BC8 000:515.600 - 0.028ms returns 0
T2BC8 000:515.618 JLINK_WriteReg(R3, 0x00000000)
T2BC8 000:515.634 - 0.023ms returns 0
T2BC8 000:515.652 JLINK_WriteReg(R4, 0x00000000)
T2BC8 000:515.667 - 0.023ms returns 0
T2BC8 000:515.685 JLINK_WriteReg(R5, 0x00000000)
T2BC8 000:515.702 - 0.025ms returns 0
T2BC8 000:515.720 JLINK_WriteReg(R6, 0x00000000)
T2BC8 000:515.735 - 0.023ms returns 0
T2BC8 000:515.753 JLINK_WriteReg(R7, 0x00000000)
T2BC8 000:515.769 - 0.023ms returns 0
T2BC8 000:515.786 JLINK_WriteReg(R8, 0x00000000)
T2BC8 000:515.802 - 0.023ms returns 0
T2BC8 000:515.819 JLINK_WriteReg(R9, 0x200003C8)
T2BC8 000:515.835 - 0.023ms returns 0
T2BC8 000:515.852 JLINK_WriteReg(R10, 0x00000000)
T2BC8 000:515.868 - 0.023ms returns 0
T2BC8 000:515.885 JLINK_WriteReg(R11, 0x00000000)
T2BC8 000:515.901 - 0.023ms returns 0
T2BC8 000:515.919 JLINK_WriteReg(R12, 0x00000000)
T2BC8 000:515.935 - 0.023ms returns 0
T2BC8 000:515.952 JLINK_WriteReg(R13 (SP), 0x200012CC)
T2BC8 000:515.969 - 0.024ms returns 0
T2BC8 000:515.986 JLINK_WriteReg(R14, 0x200002CD)
T2BC8 000:516.002 - 0.024ms returns 0
T2BC8 000:516.020 JLINK_WriteReg(R15 (PC), 0x20000346)
T2BC8 000:516.036 - 0.024ms returns 0
T2BC8 000:516.054 JLINK_WriteReg(XPSR, 0x01000000)
T2BC8 000:516.069 - 0.023ms returns 0
T2BC8 000:516.087 JLINK_WriteReg(MSP, 0x200012CC)
T2BC8 000:516.103 - 0.023ms returns 0
T2BC8 000:516.120 JLINK_WriteReg(PSP, 0x200012CC)
T2BC8 000:516.136 - 0.023ms returns 0
T2BC8 000:516.153 JLINK_WriteReg(CFBP, 0x00000000)
T2BC8 000:516.169 - 0.023ms returns 0
T2BC8 000:516.187 JLINK_SetBPEx(Addr = 0x200002CC, Type = 0xFFFFFFF2)
T2BC8 000:516.205 - 0.025ms returns 0x00000009
T2BC8 000:516.223 JLINK_Go()
T2BC8 000:516.254   CPU_ReadMem(4 bytes @ 0xE0001000)
T2BC8 000:520.212 - 4.033ms
T2BC8 000:520.296 JLINK_IsHalted()
T2BC8 000:521.020 - 0.767ms returns FALSE
T2BC8 000:521.084 JLINK_HasError()
T2BC8 000:522.447 JLINK_IsHalted()
T2BC8 000:523.103 - 0.703ms returns FALSE
T2BC8 000:523.172 JLINK_HasError()
T2BC8 000:525.264 JLINK_IsHalted()
T2BC8 000:525.937 - 0.735ms returns FALSE
T2BC8 000:526.028 JLINK_HasError()
T2BC8 000:527.231 JLINK_IsHalted()
T2BC8 000:527.894 - 0.715ms returns FALSE
T2BC8 000:527.973 JLINK_HasError()
T2BC8 000:530.108 JLINK_IsHalted()
T2BC8 000:530.980 - 0.921ms returns FALSE
T2BC8 000:531.050 JLINK_HasError()
T2BC8 000:532.637 JLINK_IsHalted()
T2BC8 000:533.331 - 0.756ms returns FALSE
T2BC8 000:533.420 JLINK_HasError()
T2BC8 000:535.005 JLINK_IsHalted()
T2BC8 000:535.739 - 0.805ms returns FALSE
T2BC8 000:535.841 JLINK_HasError()
T2BC8 000:537.242 JLINK_IsHalted()
T2BC8 000:541.033   CPU_ReadMem(2 bytes @ 0x200002CC)
T2BC8 000:541.966 - 4.797ms returns TRUE
T2BC8 000:542.105 JLINK_ReadReg(R15 (PC))
T2BC8 000:542.157 - 0.066ms returns 0x200002CC
T2BC8 000:542.190 JLINK_ClrBPEx(BPHandle = 0x00000009)
T2BC8 000:542.219 - 0.042ms returns 0x00
T2BC8 000:542.441 JLINK_ReadReg(R0)
T2BC8 000:542.501 - 0.076ms returns 0x00000000
T2BC8 000:544.382 JLINK_HasError()
T2BC8 000:544.446 JLINK_WriteReg(R0, 0x10042000)
T2BC8 000:544.474 - 0.038ms returns 0
T2BC8 000:544.498 JLINK_WriteReg(R1, 0x00000800)
T2BC8 000:544.520 - 0.031ms returns 0
T2BC8 000:544.543 JLINK_WriteReg(R2, 0x000000FF)
T2BC8 000:544.564 - 0.030ms returns 0
T2BC8 000:544.587 JLINK_WriteReg(R3, 0x00000000)
T2BC8 000:544.607 - 0.030ms returns 0
T2BC8 000:544.630 JLINK_WriteReg(R4, 0x00000000)
T2BC8 000:544.650 - 0.030ms returns 0
T2BC8 000:544.673 JLINK_WriteReg(R5, 0x00000000)
T2BC8 000:544.693 - 0.030ms returns 0
T2BC8 000:544.716 JLINK_WriteReg(R6, 0x00000000)
T2BC8 000:544.736 - 0.030ms returns 0
T2BC8 000:544.759 JLINK_WriteReg(R7, 0x00000000)
T2BC8 000:544.779 - 0.030ms returns 0
T2BC8 000:544.802 JLINK_WriteReg(R8, 0x00000000)
T2BC8 000:544.826 - 0.033ms returns 0
T2BC8 000:544.848 JLINK_WriteReg(R9, 0x200003C8)
T2BC8 000:544.869 - 0.030ms returns 0
T2BC8 000:544.931 JLINK_WriteReg(R10, 0x00000000)
T2BC8 000:544.955 - 0.033ms returns 0
T2BC8 000:544.985 JLINK_WriteReg(R11, 0x00000000)
T2BC8 000:545.012 - 0.036ms returns 0
T2BC8 000:545.035 JLINK_WriteReg(R12, 0x00000000)
T2BC8 000:545.056 - 0.030ms returns 0
T2BC8 000:545.078 JLINK_WriteReg(R13 (SP), 0x200012CC)
T2BC8 000:545.102 - 0.034ms returns 0
T2BC8 000:545.125 JLINK_WriteReg(R14, 0x200002CD)
T2BC8 000:545.146 - 0.031ms returns 0
T2BC8 000:545.170 JLINK_WriteReg(R15 (PC), 0x200002EC)
T2BC8 000:545.191 - 0.031ms returns 0
T2BC8 000:545.214 JLINK_WriteReg(XPSR, 0x01000000)
T2BC8 000:545.234 - 0.031ms returns 0
T2BC8 000:545.258 JLINK_WriteReg(MSP, 0x200012CC)
T2BC8 000:545.279 - 0.030ms returns 0
T2BC8 000:545.303 JLINK_WriteReg(PSP, 0x200012CC)
T2BC8 000:545.322 - 0.028ms returns 0
T2BC8 000:545.342 JLINK_WriteReg(CFBP, 0x00000000)
T2BC8 000:545.361 - 0.027ms returns 0
T2BC8 000:545.382 JLINK_SetBPEx(Addr = 0x200002CC, Type = 0xFFFFFFF2)
T2BC8 000:545.422 - 0.051ms returns 0x0000000A
T2BC8 000:545.446 JLINK_Go()
T2BC8 000:545.485   CPU_ReadMem(4 bytes @ 0xE0001000)
T2BC8 000:549.617 - 4.239ms
T2BC8 000:549.706 JLINK_IsHalted()
T2BC8 000:553.094   CPU_ReadMem(2 bytes @ 0x200002CC)
T2BC8 000:553.738 - 4.078ms returns TRUE
T2BC8 000:553.806 JLINK_ReadReg(R15 (PC))
T2BC8 000:553.838 - 0.041ms returns 0x200002CC
T2BC8 000:553.861 JLINK_ClrBPEx(BPHandle = 0x0000000A)
T2BC8 000:553.884 - 0.031ms returns 0x00
T2BC8 000:553.905 JLINK_ReadReg(R0)
T2BC8 000:553.925 - 0.028ms returns 0x00000001
T2BC8 000:553.948 JLINK_HasError()
T2BC8 000:553.970 JLINK_WriteReg(R0, 0x10042000)
T2BC8 000:553.991 - 0.030ms returns 0
T2BC8 000:554.012 JLINK_WriteReg(R1, 0x00000800)
T2BC8 000:554.031 - 0.028ms returns 0
T2BC8 000:554.052 JLINK_WriteReg(R2, 0x000000FF)
T2BC8 000:554.070 - 0.027ms returns 0
T2BC8 000:554.091 JLINK_WriteReg(R3, 0x00000000)
T2BC8 000:554.109 - 0.027ms returns 0
T2BC8 000:554.130 JLINK_WriteReg(R4, 0x00000000)
T2BC8 000:554.148 - 0.027ms returns 0
T2BC8 000:554.169 JLINK_WriteReg(R5, 0x00000000)
T2BC8 000:554.187 - 0.027ms returns 0
T2BC8 000:554.208 JLINK_WriteReg(R6, 0x00000000)
T2BC8 000:554.226 - 0.027ms returns 0
T2BC8 000:554.247 JLINK_WriteReg(R7, 0x00000000)
T2BC8 000:554.266 - 0.028ms returns 0
T2BC8 000:554.287 JLINK_WriteReg(R8, 0x00000000)
T2BC8 000:554.304 - 0.025ms returns 0
T2BC8 000:554.323 JLINK_WriteReg(R9, 0x200003C8)
T2BC8 000:554.340 - 0.025ms returns 0
T2BC8 000:554.359 JLINK_WriteReg(R10, 0x00000000)
T2BC8 000:554.376 - 0.025ms returns 0
T2BC8 000:554.395 JLINK_WriteReg(R11, 0x00000000)
T2BC8 000:554.412 - 0.025ms returns 0
T2BC8 000:554.431 JLINK_WriteReg(R12, 0x00000000)
T2BC8 000:554.448 - 0.025ms returns 0
T2BC8 000:554.466 JLINK_WriteReg(R13 (SP), 0x200012CC)
T2BC8 000:554.485 - 0.026ms returns 0
T2BC8 000:554.504 JLINK_WriteReg(R14, 0x200002CD)
T2BC8 000:554.521 - 0.025ms returns 0
T2BC8 000:554.540 JLINK_WriteReg(R15 (PC), 0x20000346)
T2BC8 000:554.557 - 0.025ms returns 0
T2BC8 000:554.576 JLINK_WriteReg(XPSR, 0x01000000)
T2BC8 000:554.593 - 0.025ms returns 0
T2BC8 000:554.612 JLINK_WriteReg(MSP, 0x200012CC)
T2BC8 000:554.784 - 0.181ms returns 0
T2BC8 000:554.897 JLINK_WriteReg(PSP, 0x200012CC)
T2BC8 000:554.932 - 0.044ms returns 0
T2BC8 000:554.954 JLINK_WriteReg(CFBP, 0x00000000)
T2BC8 000:554.973 - 0.027ms returns 0
T2BC8 000:554.994 JLINK_SetBPEx(Addr = 0x200002CC, Type = 0xFFFFFFF2)
T2BC8 000:555.016 - 0.031ms returns 0x0000000B
T2BC8 000:555.036 JLINK_Go()
T2BC8 000:555.104   CPU_ReadMem(4 bytes @ 0xE0001000)
T2BC8 000:559.099 - 4.123ms
T2BC8 000:559.183 JLINK_IsHalted()
T2BC8 000:559.860 - 0.719ms returns FALSE
T2BC8 000:559.923 JLINK_HasError()
T2BC8 000:561.347 JLINK_IsHalted()
T2BC8 000:562.096 - 0.792ms returns FALSE
T2BC8 000:562.180 JLINK_HasError()
T2BC8 000:563.582 JLINK_IsHalted()
T2BC8 000:564.276 - 0.742ms returns FALSE
T2BC8 000:564.350 JLINK_HasError()
T2BC8 000:571.198 JLINK_IsHalted()
T2BC8 000:571.765 - 0.592ms returns FALSE
T2BC8 000:571.804 JLINK_HasError()
T2BC8 000:574.071 JLINK_IsHalted()
T2BC8 000:574.596 - 0.549ms returns FALSE
T2BC8 000:574.632 JLINK_HasError()
T2BC8 000:576.138 JLINK_IsHalted()
T2BC8 000:579.680   CPU_ReadMem(2 bytes @ 0x200002CC)
T2BC8 000:580.349 - 4.240ms returns TRUE
T2BC8 000:580.392 JLINK_ReadReg(R15 (PC))
T2BC8 000:580.412 - 0.026ms returns 0x200002CC
T2BC8 000:580.428 JLINK_ClrBPEx(BPHandle = 0x0000000B)
T2BC8 000:580.441 - 0.019ms returns 0x00
T2BC8 000:580.456 JLINK_ReadReg(R0)
T2BC8 000:580.468 - 0.018ms returns 0x00000000
T2BC8 000:581.366 JLINK_HasError()
T2BC8 000:581.394 JLINK_WriteReg(R0, 0x10042800)
T2BC8 000:581.410 - 0.021ms returns 0
T2BC8 000:581.423 JLINK_WriteReg(R1, 0x00000800)
T2BC8 000:581.434 - 0.017ms returns 0
T2BC8 000:581.447 JLINK_WriteReg(R2, 0x000000FF)
T2BC8 000:581.459 - 0.018ms returns 0
T2BC8 000:581.472 JLINK_WriteReg(R3, 0x00000000)
T2BC8 000:581.485 - 0.017ms returns 0
T2BC8 000:581.498 JLINK_WriteReg(R4, 0x00000000)
T2BC8 000:581.509 - 0.017ms returns 0
T2BC8 000:581.522 JLINK_WriteReg(R5, 0x00000000)
T2BC8 000:581.533 - 0.016ms returns 0
T2BC8 000:581.545 JLINK_WriteReg(R6, 0x00000000)
T2BC8 000:581.557 - 0.016ms returns 0
T2BC8 000:581.569 JLINK_WriteReg(R7, 0x00000000)
T2BC8 000:581.648 - 0.084ms returns 0
T2BC8 000:581.662 JLINK_WriteReg(R8, 0x00000000)
T2BC8 000:581.675 - 0.018ms returns 0
T2BC8 000:581.687 JLINK_WriteReg(R9, 0x200003C8)
T2BC8 000:581.698 - 0.016ms returns 0
T2BC8 000:581.710 JLINK_WriteReg(R10, 0x00000000)
T2BC8 000:581.721 - 0.016ms returns 0
T2BC8 000:581.733 JLINK_WriteReg(R11, 0x00000000)
T2BC8 000:581.744 - 0.016ms returns 0
T2BC8 000:581.755 JLINK_WriteReg(R12, 0x00000000)
T2BC8 000:581.766 - 0.015ms returns 0
T2BC8 000:581.778 JLINK_WriteReg(R13 (SP), 0x200012CC)
T2BC8 000:581.790 - 0.017ms returns 0
T2BC8 000:581.802 JLINK_WriteReg(R14, 0x200002CD)
T2BC8 000:581.813 - 0.016ms returns 0
T2BC8 000:581.825 JLINK_WriteReg(R15 (PC), 0x200002EC)
T2BC8 000:581.836 - 0.016ms returns 0
T2BC8 000:581.848 JLINK_WriteReg(XPSR, 0x01000000)
T2BC8 000:581.859 - 0.016ms returns 0
T2BC8 000:581.871 JLINK_WriteReg(MSP, 0x200012CC)
T2BC8 000:581.881 - 0.015ms returns 0
T2BC8 000:581.893 JLINK_WriteReg(PSP, 0x200012CC)
T2BC8 000:581.904 - 0.016ms returns 0
T2BC8 000:581.916 JLINK_WriteReg(CFBP, 0x00000000)
T2BC8 000:581.926 - 0.016ms returns 0
T2BC8 000:581.938 JLINK_SetBPEx(Addr = 0x200002CC, Type = 0xFFFFFFF2)
T2BC8 000:581.951 - 0.018ms returns 0x0000000C
T2BC8 000:581.964 JLINK_Go()
T2BC8 000:581.985   CPU_ReadMem(4 bytes @ 0xE0001000)
T2BC8 000:585.793 - 3.879ms
T2BC8 000:585.858 JLINK_IsHalted()
T2BC8 000:589.008   CPU_ReadMem(2 bytes @ 0x200002CC)
T2BC8 000:589.682 - 3.850ms returns TRUE
T2BC8 000:589.723 JLINK_ReadReg(R15 (PC))
T2BC8 000:589.742 - 0.024ms returns 0x200002CC
T2BC8 000:589.756 JLINK_ClrBPEx(BPHandle = 0x0000000C)
T2BC8 000:589.768 - 0.017ms returns 0x00
T2BC8 000:589.780 JLINK_ReadReg(R0)
T2BC8 000:589.791 - 0.017ms returns 0x00000001
T2BC8 000:589.807 JLINK_HasError()
T2BC8 000:589.820 JLINK_WriteReg(R0, 0x10042800)
T2BC8 000:589.833 - 0.017ms returns 0
T2BC8 000:589.845 JLINK_WriteReg(R1, 0x00000800)
T2BC8 000:589.856 - 0.016ms returns 0
T2BC8 000:589.868 JLINK_WriteReg(R2, 0x000000FF)
T2BC8 000:589.904 - 0.042ms returns 0
T2BC8 000:589.918 JLINK_WriteReg(R3, 0x00000000)
T2BC8 000:589.928 - 0.016ms returns 0
T2BC8 000:589.940 JLINK_WriteReg(R4, 0x00000000)
T2BC8 000:589.952 - 0.017ms returns 0
T2BC8 000:589.964 JLINK_WriteReg(R5, 0x00000000)
T2BC8 000:589.975 - 0.017ms returns 0
T2BC8 000:589.988 JLINK_WriteReg(R6, 0x00000000)
T2BC8 000:589.999 - 0.017ms returns 0
T2BC8 000:590.011 JLINK_WriteReg(R7, 0x00000000)
T2BC8 000:590.023 - 0.016ms returns 0
T2BC8 000:590.035 JLINK_WriteReg(R8, 0x00000000)
T2BC8 000:590.046 - 0.016ms returns 0
T2BC8 000:590.059 JLINK_WriteReg(R9, 0x200003C8)
T2BC8 000:590.070 - 0.016ms returns 0
T2BC8 000:590.082 JLINK_WriteReg(R10, 0x00000000)
T2BC8 000:590.094 - 0.016ms returns 0
T2BC8 000:590.105 JLINK_WriteReg(R11, 0x00000000)
T2BC8 000:590.116 - 0.015ms returns 0
T2BC8 000:590.128 JLINK_WriteReg(R12, 0x00000000)
T2BC8 000:590.139 - 0.016ms returns 0
T2BC8 000:590.155 JLINK_WriteReg(R13 (SP), 0x200012CC)
T2BC8 000:590.171 - 0.020ms returns 0
T2BC8 000:590.183 JLINK_WriteReg(R14, 0x200002CD)
T2BC8 000:590.194 - 0.016ms returns 0
T2BC8 000:590.205 JLINK_WriteReg(R15 (PC), 0x20000346)
T2BC8 000:590.216 - 0.016ms returns 0
T2BC8 000:590.229 JLINK_WriteReg(XPSR, 0x01000000)
T2BC8 000:590.240 - 0.016ms returns 0
T2BC8 000:590.252 JLINK_WriteReg(MSP, 0x200012CC)
T2BC8 000:590.263 - 0.025ms returns 0
T2BC8 000:590.285 JLINK_WriteReg(PSP, 0x200012CC)
T2BC8 000:590.297 - 0.016ms returns 0
T2BC8 000:590.309 JLINK_WriteReg(CFBP, 0x00000000)
T2BC8 000:590.319 - 0.016ms returns 0
T2BC8 000:590.332 JLINK_SetBPEx(Addr = 0x200002CC, Type = 0xFFFFFFF2)
T2BC8 000:590.345 - 0.018ms returns 0x0000000D
T2BC8 000:590.357 JLINK_Go()
T2BC8 000:590.379   CPU_ReadMem(4 bytes @ 0xE0001000)
T2BC8 000:594.059 - 3.730ms
T2BC8 000:594.111 JLINK_IsHalted()
T2BC8 000:594.582 - 0.498ms returns FALSE
T2BC8 000:594.633 JLINK_HasError()
T2BC8 000:598.936 JLINK_IsHalted()
T2BC8 000:599.398 - 0.482ms returns FALSE
T2BC8 000:599.428 JLINK_HasError()
T2BC8 000:600.563 JLINK_IsHalted()
T2BC8 000:601.214 - 0.673ms returns FALSE
T2BC8 000:601.248 JLINK_HasError()
T2BC8 000:602.686 JLINK_IsHalted()
T2BC8 000:603.247 - 0.585ms returns FALSE
T2BC8 000:603.283 JLINK_HasError()
T2BC8 000:604.876 JLINK_IsHalted()
T2BC8 000:605.701 - 0.851ms returns FALSE
T2BC8 000:605.740 JLINK_HasError()
T2BC8 000:607.424 JLINK_IsHalted()
T2BC8 000:608.111 - 0.716ms returns FALSE
T2BC8 000:608.155 JLINK_HasError()
T2BC8 000:609.386 JLINK_IsHalted()
T2BC8 000:612.826   CPU_ReadMem(2 bytes @ 0x200002CC)
T2BC8 000:613.517 - 4.170ms returns TRUE
T2BC8 000:613.575 JLINK_ReadReg(R15 (PC))
T2BC8 000:613.598 - 0.029ms returns 0x200002CC
T2BC8 000:613.614 JLINK_ClrBPEx(BPHandle = 0x0000000D)
T2BC8 000:613.630 - 0.022ms returns 0x00
T2BC8 000:613.646 JLINK_ReadReg(R0)
T2BC8 000:613.660 - 0.020ms returns 0x00000000
T2BC8 000:614.851 JLINK_HasError()
T2BC8 000:614.935 JLINK_WriteReg(R0, 0x10043000)
T2BC8 000:614.979 - 0.051ms returns 0
T2BC8 000:614.995 JLINK_WriteReg(R1, 0x00000800)
T2BC8 000:615.009 - 0.020ms returns 0
T2BC8 000:615.025 JLINK_WriteReg(R2, 0x000000FF)
T2BC8 000:615.038 - 0.019ms returns 0
T2BC8 000:615.052 JLINK_WriteReg(R3, 0x00000000)
T2BC8 000:615.066 - 0.021ms returns 0
T2BC8 000:615.081 JLINK_WriteReg(R4, 0x00000000)
T2BC8 000:615.094 - 0.019ms returns 0
T2BC8 000:615.108 JLINK_WriteReg(R5, 0x00000000)
T2BC8 000:615.121 - 0.019ms returns 0
T2BC8 000:615.135 JLINK_WriteReg(R6, 0x00000000)
T2BC8 000:615.148 - 0.019ms returns 0
T2BC8 000:615.162 JLINK_WriteReg(R7, 0x00000000)
T2BC8 000:615.175 - 0.019ms returns 0
T2BC8 000:615.189 JLINK_WriteReg(R8, 0x00000000)
T2BC8 000:615.202 - 0.020ms returns 0
T2BC8 000:615.217 JLINK_WriteReg(R9, 0x200003C8)
T2BC8 000:615.230 - 0.019ms returns 0
T2BC8 000:615.245 JLINK_WriteReg(R10, 0x00000000)
T2BC8 000:615.258 - 0.019ms returns 0
T2BC8 000:615.272 JLINK_WriteReg(R11, 0x00000000)
T2BC8 000:615.314 - 0.059ms returns 0
T2BC8 000:615.395 JLINK_WriteReg(R12, 0x00000000)
T2BC8 000:615.414 - 0.025ms returns 0
T2BC8 000:615.429 JLINK_WriteReg(R13 (SP), 0x200012CC)
T2BC8 000:615.443 - 0.021ms returns 0
T2BC8 000:615.458 JLINK_WriteReg(R14, 0x200002CD)
T2BC8 000:615.470 - 0.018ms returns 0
T2BC8 000:615.484 JLINK_WriteReg(R15 (PC), 0x200002EC)
T2BC8 000:615.496 - 0.018ms returns 0
T2BC8 000:615.510 JLINK_WriteReg(XPSR, 0x01000000)
T2BC8 000:615.522 - 0.017ms returns 0
T2BC8 000:615.535 JLINK_WriteReg(MSP, 0x200012CC)
T2BC8 000:615.547 - 0.017ms returns 0
T2BC8 000:615.560 JLINK_WriteReg(PSP, 0x200012CC)
T2BC8 000:615.573 - 0.018ms returns 0
T2BC8 000:615.586 JLINK_WriteReg(CFBP, 0x00000000)
T2BC8 000:615.598 - 0.017ms returns 0
T2BC8 000:615.612 JLINK_SetBPEx(Addr = 0x200002CC, Type = 0xFFFFFFF2)
T2BC8 000:615.628 - 0.021ms returns 0x0000000E
T2BC8 000:615.642 JLINK_Go()
T2BC8 000:615.667   CPU_ReadMem(4 bytes @ 0xE0001000)
T2BC8 000:619.516 - 3.931ms
T2BC8 000:619.651 JLINK_IsHalted()
T2BC8 000:622.965   CPU_ReadMem(2 bytes @ 0x200002CC)
T2BC8 000:623.524 - 3.901ms returns TRUE
T2BC8 000:623.568 JLINK_ReadReg(R15 (PC))
T2BC8 000:623.587 - 0.025ms returns 0x200002CC
T2BC8 000:623.602 JLINK_ClrBPEx(BPHandle = 0x0000000E)
T2BC8 000:623.616 - 0.019ms returns 0x00
T2BC8 000:623.630 JLINK_ReadReg(R0)
T2BC8 000:623.643 - 0.018ms returns 0x00000001
T2BC8 000:623.658 JLINK_HasError()
T2BC8 000:623.673 JLINK_WriteReg(R0, 0x10043000)
T2BC8 000:623.686 - 0.019ms returns 0
T2BC8 000:623.700 JLINK_WriteReg(R1, 0x00000800)
T2BC8 000:623.712 - 0.018ms returns 0
T2BC8 000:623.726 JLINK_WriteReg(R2, 0x000000FF)
T2BC8 000:623.738 - 0.018ms returns 0
T2BC8 000:623.752 JLINK_WriteReg(R3, 0x00000000)
T2BC8 000:623.763 - 0.016ms returns 0
T2BC8 000:623.776 JLINK_WriteReg(R4, 0x00000000)
T2BC8 000:623.787 - 0.016ms returns 0
T2BC8 000:623.799 JLINK_WriteReg(R5, 0x00000000)
T2BC8 000:623.811 - 0.016ms returns 0
T2BC8 000:623.823 JLINK_WriteReg(R6, 0x00000000)
T2BC8 000:623.834 - 0.016ms returns 0
T2BC8 000:623.847 JLINK_WriteReg(R7, 0x00000000)
T2BC8 000:623.858 - 0.016ms returns 0
T2BC8 000:623.871 JLINK_WriteReg(R8, 0x00000000)
T2BC8 000:623.882 - 0.017ms returns 0
T2BC8 000:623.895 JLINK_WriteReg(R9, 0x200003C8)
T2BC8 000:623.906 - 0.016ms returns 0
T2BC8 000:623.919 JLINK_WriteReg(R10, 0x00000000)
T2BC8 000:623.930 - 0.017ms returns 0
T2BC8 000:623.943 JLINK_WriteReg(R11, 0x00000000)
T2BC8 000:623.954 - 0.016ms returns 0
T2BC8 000:623.967 JLINK_WriteReg(R12, 0x00000000)
T2BC8 000:623.978 - 0.016ms returns 0
T2BC8 000:623.990 JLINK_WriteReg(R13 (SP), 0x200012CC)
T2BC8 000:624.003 - 0.017ms returns 0
T2BC8 000:624.015 JLINK_WriteReg(R14, 0x200002CD)
T2BC8 000:624.027 - 0.017ms returns 0
T2BC8 000:624.039 JLINK_WriteReg(R15 (PC), 0x20000346)
T2BC8 000:624.051 - 0.017ms returns 0
T2BC8 000:624.063 JLINK_WriteReg(XPSR, 0x01000000)
T2BC8 000:624.075 - 0.018ms returns 0
